<Qucs Dataset 0.0.19>
<indep time 30>
  +0.00000000000000000000e+000
  +1.72413793103448291426e-006
  +3.44827586206896582853e-006
  +5.17241379310344831928e-006
  +6.89655172413793165706e-006
  +8.62068965517241414781e-006
  +1.03448275862068966386e-005
  +1.20689655172413791293e-005
  +1.37931034482758633141e-005
  +1.55172413793103458049e-005
  +1.72413793103448282956e-005
  +1.89655172413793107864e-005
  +2.06896551724137932771e-005
  +2.24137931034482757679e-005
  +2.41379310344827582586e-005
  +2.58620689655172441375e-005
  +2.75862068965517266282e-005
  +2.93103448275862091190e-005
  +3.10344827586206916097e-005
  +3.27586206896551707123e-005
  +3.44827586206896565912e-005
  +3.62068965517241424701e-005
  +3.79310344827586215727e-005
  +3.96551724137931074516e-005
  +4.13793103448275865542e-005
  +4.31034482758620724331e-005
  +4.48275862068965515357e-005
  +4.65517241379310374146e-005
  +4.82758620689655165172e-005
  +5.00000000000000023961e-005
</indep>
<dep V_L.Vt time>
  +9.99990000099998965766e+000
  +8.41625609825728560054e+000
  +7.08331869917793621738e+000
  +5.96148729415600620030e+000
  +5.01732764932743524611e+000
  +4.22270072862236833799e+000
  +3.55392405873635341962e+000
  +2.99106591420359846367e+000
  +2.51735128698603638497e+000
  +2.11866193653494594429e+000
  +1.78311562018674374386e+000
  +1.50071196358678493610e+000
  +1.26303441692504780924e+000
  +1.06299941430761601957e+000
  +8.94645260395464880787e-001
  +7.52954452443792443539e-001
  +6.33704142359539424056e-001
  +5.33340282058581305336e-001
  +4.48871701244050458346e-001
  +3.77780960778053565008e-001
  +3.17949324786665765696e-001
  +2.67593615422259789582e-001
  +2.25213068349187361950e-001
  +1.89544605072951427571e-001
  +1.59525189082534768481e-001
  +1.34260143896072547953e-001
  +1.12996488784391849181e-001
  +9.51004974900514221670e-002
  +8.00388111183868156129e-002
  +6.73625423033648307314e-002
</dep>
<dep V.It time>
  -9.99990000099999064975e-008
  -1.58374390174271508988e-003
  -2.91668130082206383466e-003
  -4.03851270584399367480e-003
  -4.98267235067256439307e-003
  -5.77729927137763180078e-003
  -6.44607594126364678161e-003
  -7.00893408579640175143e-003
  -7.48264871301396357339e-003
  -7.88133806346505427776e-003
  -8.21688437981325618675e-003
  -8.49928803641321513329e-003
  -8.73696558307495221851e-003
  -8.93700058569238398043e-003
  -9.10535473960453513309e-003
  -9.24704554755620758422e-003
  -9.36629585764046056207e-003
  -9.46665971794141865303e-003
  -9.55112829875594954165e-003
  -9.62221903922194643499e-003
  -9.68205067521333423430e-003
  -9.73240638457774018266e-003
  -9.77478693165081263805e-003
  -9.81045539492704857243e-003
  -9.84047481091746521764e-003
  -9.86573985610392743817e-003
  -9.88700351121560815082e-003
  -9.90489950250994857783e-003
  -9.91996118888161318439e-003
  -9.93263745769663516927e-003
</dep>
<dep I_L.It time>
  +9.99990000099999064975e-008
  +1.58374390174271508988e-003
  +2.91668130082206383466e-003
  +4.03851270584399367480e-003
  +4.98267235067256439307e-003
  +5.77729927137763180078e-003
  +6.44607594126364678161e-003
  +7.00893408579640175143e-003
  +7.48264871301396357339e-003
  +7.88133806346505427776e-003
  +8.21688437981325618675e-003
  +8.49928803641321513329e-003
  +8.73696558307495221851e-003
  +8.93700058569238398043e-003
  +9.10535473960453513309e-003
  +9.24704554755620758422e-003
  +9.36629585764046056207e-003
  +9.46665971794141865303e-003
  +9.55112829875594954165e-003
  +9.62221903922194643499e-003
  +9.68205067521333423430e-003
  +9.73240638457774018266e-003
  +9.77478693165081263805e-003
  +9.81045539492704857243e-003
  +9.84047481091746521764e-003
  +9.86573985610392743817e-003
  +9.88700351121560815082e-003
  +9.90489950250994857783e-003
  +9.91996118888161318439e-003
  +9.93263745769663516927e-003
</dep>
<dep _net2.Vt time>
  +0.00000000000000000000e+000
  +0.00000000000000000000e+000
  +0.00000000000000000000e+000
  +0.00000000000000000000e+000
  +0.00000000000000000000e+000
  +0.00000000000000000000e+000
  +0.00000000000000000000e+000
  +0.00000000000000000000e+000
  +0.00000000000000000000e+000
  +0.00000000000000000000e+000
  +0.00000000000000000000e+000
  +0.00000000000000000000e+000
  +0.00000000000000000000e+000
  +0.00000000000000000000e+000
  +0.00000000000000000000e+000
  +0.00000000000000000000e+000
  +0.00000000000000000000e+000
  +0.00000000000000000000e+000
  +0.00000000000000000000e+000
  +0.00000000000000000000e+000
  +0.00000000000000000000e+000
  +0.00000000000000000000e+000
  +0.00000000000000000000e+000
  +0.00000000000000000000e+000
  +0.00000000000000000000e+000
  +0.00000000000000000000e+000
  +0.00000000000000000000e+000
  +0.00000000000000000000e+000
  +0.00000000000000000000e+000
  +0.00000000000000000000e+000
</dep>
<dep _net3.Vt time>
  -9.99990000099998965766e+000
  -8.41625609825728560054e+000
  -7.08331869917793621738e+000
  -5.96148729415600620030e+000
  -5.01732764932743524611e+000
  -4.22270072862236833799e+000
  -3.55392405873635341962e+000
  -2.99106591420359846367e+000
  -2.51735128698603638497e+000
  -2.11866193653494594429e+000
  -1.78311562018674374386e+000
  -1.50071196358678493610e+000
  -1.26303441692504780924e+000
  -1.06299941430761601957e+000
  -8.94645260395464880787e-001
  -7.52954452443792443539e-001
  -6.33704142359539424056e-001
  -5.33340282058581305336e-001
  -4.48871701244050458346e-001
  -3.77780960778053565008e-001
  -3.17949324786665765696e-001
  -2.67593615422259789582e-001
  -2.25213068349187361950e-001
  -1.89544605072951427571e-001
  -1.59525189082534768481e-001
  -1.34260143896072547953e-001
  -1.12996488784391849181e-001
  -9.51004974900514221670e-002
  -8.00388111183868156129e-002
  -6.73625423033648307314e-002
</dep>
<dep _net1.Vt time>
  -1.00000000000000000000e+001
  -1.00000000000000000000e+001
  -1.00000000000000000000e+001
  -1.00000000000000000000e+001
  -1.00000000000000000000e+001
  -1.00000000000000000000e+001
  -1.00000000000000000000e+001
  -1.00000000000000000000e+001
  -1.00000000000000000000e+001
  -1.00000000000000000000e+001
  -1.00000000000000000000e+001
  -1.00000000000000000000e+001
  -1.00000000000000000000e+001
  -1.00000000000000000000e+001
  -1.00000000000000000000e+001
  -1.00000000000000000000e+001
  -1.00000000000000000000e+001
  -1.00000000000000000000e+001
  -1.00000000000000000000e+001
  -1.00000000000000000000e+001
  -1.00000000000000000000e+001
  -1.00000000000000000000e+001
  -1.00000000000000000000e+001
  -1.00000000000000000000e+001
  -1.00000000000000000000e+001
  -1.00000000000000000000e+001
  -1.00000000000000000000e+001
  -1.00000000000000000000e+001
  -1.00000000000000000000e+001
  -1.00000000000000000000e+001
</dep>
<dep _net0.Vt time>
  +0.00000000000000000000e+000
  +0.00000000000000000000e+000
  +0.00000000000000000000e+000
  +0.00000000000000000000e+000
  +0.00000000000000000000e+000
  +0.00000000000000000000e+000
  +0.00000000000000000000e+000
  +0.00000000000000000000e+000
  +0.00000000000000000000e+000
  +0.00000000000000000000e+000
  +0.00000000000000000000e+000
  +0.00000000000000000000e+000
  +0.00000000000000000000e+000
  +0.00000000000000000000e+000
  +0.00000000000000000000e+000
  +0.00000000000000000000e+000
  +0.00000000000000000000e+000
  +0.00000000000000000000e+000
  +0.00000000000000000000e+000
  +0.00000000000000000000e+000
  +0.00000000000000000000e+000
  +0.00000000000000000000e+000
  +0.00000000000000000000e+000
  +0.00000000000000000000e+000
  +0.00000000000000000000e+000
  +0.00000000000000000000e+000
  +0.00000000000000000000e+000
  +0.00000000000000000000e+000
  +0.00000000000000000000e+000
  +0.00000000000000000000e+000
</dep>
