<Qucs Dataset 0.0.19>
<indep acfrequency 30>
  +1.00000000000000002082e-002
  +1.61026202756093944624e-002
  +2.59294379740466762740e-002
  +4.17531893656040153928e-002
  +6.72335753649933726139e-002
  +1.08263673387405487403e-001
  +1.74332882219998847040e-001
  +2.80721620394117743480e-001
  +4.52035365636024422109e-001
  +7.27895384398315137275e-001
  +1.17210229753348094128e+000
  +1.88739182213509737451e+000
  +3.03919538231319918964e+000
  +4.89390091847749353349e+000
  +7.88046281566991524414e+000
  +1.26896100316792228568e+001
  +2.04335971785694283653e+001
  +3.29034456231266787540e+001
  +5.29831690628371063667e+001
  +8.53167852417281409316e+001
  +1.37382379588326443809e+002
  +2.21221629107044861939e+002
  +3.56224789026244309298e+002
  +5.73615251044868273311e+002
  +9.23670857187387127851e+002
  +1.48735210729351365444e+003
  +2.39502661998748544647e+003
  +3.85662042116347356568e+003
  +6.21016941891562055389e+003
  +1.00000000000000127329e+004
</indep>
<dep Modulo acfrequency>
  -1.71452555481211634974e-006
  -4.44566699951231336310e-006
  -1.15273552810281043862e-005
  -2.98897211830245349083e-005
  -7.75019423133904868366e-005
  -2.00955324377519449789e-004
  -5.21046659731041550759e-004
  -1.35091562425613100420e-003
  -3.50198083313534589203e-003
  -9.07461417742975486045e-003
  -2.34909189872081584916e-002
  -6.06501874464755175165e-002
  -1.55546678944384175747e-001
  -3.92363437442046603110e-001
  -9.52278330820810037238e-001
  -2.13705238177726286608e+000
  -4.22975354706568040797e+000
  -7.22146590366835638974e+000
  -1.08215483983897886588e+001
  -1.47328485505279331846e+001
  -1.87801161664138724916e+001
  -2.28825697252479471899e+001
  -2.70067406304791219895e+001
  -3.11393532344124643885e+001
  -3.52752314105783923992e+001
  -3.94123704761788147266e+001
  -4.35499960397317238403e+001
  -4.76878092599306029342e+001
  -5.18256948570620679106e+001
  -5.59636083679561195936e+001
</dep>
<dep Argumento acfrequency>
  -6.28318448034573631168e-004
  -1.01175712599863801971e-003
  -1.62919319557821890183e-003
  -2.62342424103650462622e-003
  -4.22438499999173208005e-003
  -6.80230230018738241810e-003
  -1.09532199898845286623e-002
  -1.76364308122953436508e-002
  -2.83945861461663215386e-002
  -4.57031679535681092941e-002
  -7.35126489940574334714e-002
  -1.18037059679093656039e-001
  -1.88686672965994534090e-001
  -2.98316726370268681112e-001
  -4.59755333807999821971e-001
  -6.73099591934842145236e-001
  -9.09061451186142677194e-001
  -1.12027113753833584830e+000
  -1.27898384731346381749e+000
  -1.38637025713459260956e+000
  -1.45546230267302667549e+000
  -1.49897640402597209786e+000
  -1.52614778579296328509e+000
  -1.54305750351130077647e+000
  -1.55356733296177784709e+000
  -1.56009617931707089689e+000
  -1.56415119813051317621e+000
  -1.56666955199658874953e+000
  -1.56823352079213118593e+000
  -1.56920477870778962703e+000
</dep>
<dep T acfrequency>
  +9.99999605215979747719e-001-j6.28318282667843014053e-004
  +9.99998976347867385428e-001-j1.01175643554031729349e-003
  +9.99997345731879816455e-001-j1.62919031270015828017e-003
  +9.99993117661040487043e-001-j2.62341220416221826070e-003
  +9.99982154677524603947e-001-j4.22433474286376068468e-003
  +9.99953729397090596009e-001-j6.80209246780708477048e-003
  +9.99880031769618815574e-001-j1.09523439502582538296e-002
  +9.99688988556258428808e-001-j1.76327739060942942362e-002
  +9.99193964135339229848e-001-j2.83793264692026488138e-002
  +9.97912674367382179774e-001-j4.56395519732736218432e-002
  +9.94605618226246490643e-001-j7.32480881595726357469e-002
  +9.86131839605990601072e-001-j1.16943723736229007737e-001
  +9.64817855322295914178e-001-j1.84239955963904050718e-001
  +9.13615914933124551034e-001-j2.80930373783317199887e-001
  +8.03104698867356470160e-001-j3.97652538687393752870e-001
  +6.11356820667740885611e-001-j4.87441953970698560461e-001
  +3.77593617956750948750e-001-j4.84785187103609960246e-001
  +1.89606582121110672778e-001-j3.91989701570667814501e-001
  +8.27647028531128398088e-002-j2.75526236164087945379e-001
  +3.36290922797486194207e-002-j1.80272506035137725089e-001
  +1.32430611177673570461e-002-j1.14313964370056003750e-001
  +5.14923873399095611419e-003-j7.15732077976900804561e-002
  +1.99216789524532143438e-003-j4.45892269760586393290e-002
  +7.69244990243930998677e-004-j2.77245965234647825937e-002
  +2.96808858686106887513e-004-j1.72255845528537093747e-002
  +1.14488786552996148161e-004-j1.06993307674241831806e-002
  +4.41570850015171140158e-005-j6.64493304355742026024e-003
  +1.70301735594678547601e-005-j4.12672794507420743343e-003
  +6.56796022839257243899e-006-j2.56279478115026011081e-003
  +2.53302317483578152328e-006-j1.59154539948735897388e-003
</dep>
<dep Vi.v acfrequency>
  +1.00000000000000000000e+001
  +1.00000000000000000000e+001
  +1.00000000000000000000e+001
  +1.00000000000000000000e+001
  +1.00000000000000000000e+001
  +1.00000000000000000000e+001
  +1.00000000000000000000e+001
  +1.00000000000000000000e+001
  +1.00000000000000000000e+001
  +1.00000000000000000000e+001
  +1.00000000000000000000e+001
  +1.00000000000000000000e+001
  +1.00000000000000000000e+001
  +1.00000000000000000000e+001
  +1.00000000000000000000e+001
  +1.00000000000000000000e+001
  +1.00000000000000000000e+001
  +1.00000000000000000000e+001
  +1.00000000000000000000e+001
  +1.00000000000000000000e+001
  +1.00000000000000000000e+001
  +1.00000000000000000000e+001
  +1.00000000000000000000e+001
  +1.00000000000000000000e+001
  +1.00000000000000000000e+001
  +1.00000000000000000000e+001
  +1.00000000000000000000e+001
  +1.00000000000000000000e+001
  +1.00000000000000000000e+001
  +1.00000000000000000000e+001
</dep>
<dep Vo.v acfrequency>
  +9.99999605215979769923e+000-j6.28318282667842970685e-003
  +9.99998976347867341019e+000-j1.01175643554031729349e-002
  +9.99997345731879860864e+000-j1.62919031270015828017e-002
  +9.99993117661040464839e+000-j2.62341220416221834744e-002
  +9.99982154677524626152e+000-j4.22433474286376051121e-002
  +9.99953729397090640418e+000-j6.80209246780708459701e-002
  +9.99880031769618859983e+000-j1.09523439502582545235e-001
  +9.99688988556258451013e+000-j1.76327739060942956240e-001
  +9.99193964135339207644e+000-j2.83793264692026481200e-001
  +9.97912674367382201979e+000-j4.56395519732736232310e-001
  +9.94605618226246512847e+000-j7.32480881595726329714e-001
  +9.86131839605990556663e+000-j1.16943723736229010512e+000
  +9.64817855322295869769e+000-j1.84239955963904056269e+000
  +9.13615914933124528829e+000-j2.80930373783317177683e+000
  +8.03104698867356425751e+000-j3.97652538687393741768e+000
  +6.11356820667740841202e+000-j4.87441953970698538257e+000
  +3.77593617956750948750e+000-j4.84785187103609960246e+000
  +1.89606582121110678330e+000-j3.91989701570667792296e+000
  +8.27647028531128370332e-001-j2.75526236164087956482e+000
  +3.36290922797486180329e-001-j1.80272506035137736191e+000
  +1.32430611177673573930e-001-j1.14313964370056009301e+000
  +5.14923873399095594072e-002-j7.15732077976900749050e-001
  +1.99216789524532152111e-002-j4.45892269760586379412e-001
  +7.69244990243931042045e-003-j2.77245965234647839814e-001
  +2.96808858686106909197e-003-j1.72255845528537093747e-001
  +1.14488786552996153582e-003-j1.06993307674241838745e-001
  +4.41570850015171167263e-004-j6.64493304355742026024e-002
  +1.70301735594678547601e-004-j4.12672794507420725996e-002
  +6.56796022839257277780e-005-j2.56279478115026028429e-002
  +2.53302317483578152328e-005-j1.59154539948735893051e-002
</dep>
<dep V1.i acfrequency>
  -3.94784020231464527484e-009-j6.28318282667842976783e-006
  -1.02365213267702204192e-008-j1.01175643554031723250e-005
  -2.65426812022517832901e-008-j1.62919031270015829372e-005
  -6.88233895949907914513e-008-j2.62341220416221828781e-005
  -1.78453224754585026979e-007-j4.22433474286376054916e-005
  -4.62706029094248072475e-007-j6.80209246780708504153e-005
  -1.19968230381101159665e-006-j1.09523439502582549680e-004
  -3.11011443741501802940e-006-j1.76327739060942972719e-004
  -8.06035864660790968284e-006-j2.83793264692026501149e-004
  -2.08732563261784104247e-005-j4.56395519732736242285e-004
  -5.39438177375346772369e-005-j7.32480881595726305427e-004
  -1.38681603940093989280e-004-j1.16943723736229014676e-003
  -3.51821446777041135778e-004-j1.84239955963904061126e-003
  -8.63840850668755322328e-004-j2.80930373783317170397e-003
  -1.96895301132643529840e-003-j3.97652538687393725114e-003
  -3.88643179332259173370e-003-j4.87441953970698532705e-003
  -6.22406382043249120639e-003-j4.84785187103609939430e-003
  -8.10393417878889354977e-003-j3.91989701570667758990e-003
  -9.17235297146887229580e-003-j2.75526236164087964461e-003
  -9.66370907720251470785e-003-j1.80272506035137735497e-003
  -9.86756938882232641219e-003-j1.14313964370056013291e-003
  -9.94850761266008985773e-003-j7.15732077976900717825e-004
  -9.98007832104754778746e-003-j4.45892269760586406301e-004
  -9.99230755009756013707e-003-j2.77245965234647871473e-004
  -9.99703191141313937673e-003-j1.72255845528537088326e-004
  -9.99885511213447104872e-003-j1.06993307674241834517e-004
  -9.99955842914998505044e-003-j6.64493304355742074813e-005
  -9.99982969826440637462e-003-j4.12672794507420705396e-005
  -9.99993432039771555642e-003-j2.56279478115026028700e-005
  -9.99997466976825129248e-003-j1.59154539948735883836e-005
</dep>
<dep _net0.v acfrequency>
  +9.99999605215979769923e+000-j6.28318282667842970685e-003
  +9.99998976347867341019e+000-j1.01175643554031729349e-002
  +9.99997345731879860864e+000-j1.62919031270015828017e-002
  +9.99993117661040464839e+000-j2.62341220416221834744e-002
  +9.99982154677524626152e+000-j4.22433474286376051121e-002
  +9.99953729397090640418e+000-j6.80209246780708459701e-002
  +9.99880031769618859983e+000-j1.09523439502582545235e-001
  +9.99688988556258451013e+000-j1.76327739060942956240e-001
  +9.99193964135339207644e+000-j2.83793264692026481200e-001
  +9.97912674367382201979e+000-j4.56395519732736232310e-001
  +9.94605618226246512847e+000-j7.32480881595726329714e-001
  +9.86131839605990556663e+000-j1.16943723736229010512e+000
  +9.64817855322295869769e+000-j1.84239955963904056269e+000
  +9.13615914933124528829e+000-j2.80930373783317177683e+000
  +8.03104698867356425751e+000-j3.97652538687393741768e+000
  +6.11356820667740841202e+000-j4.87441953970698538257e+000
  +3.77593617956750948750e+000-j4.84785187103609960246e+000
  +1.89606582121110678330e+000-j3.91989701570667792296e+000
  +8.27647028531128370332e-001-j2.75526236164087956482e+000
  +3.36290922797486180329e-001-j1.80272506035137736191e+000
  +1.32430611177673573930e-001-j1.14313964370056009301e+000
  +5.14923873399095594072e-002-j7.15732077976900749050e-001
  +1.99216789524532152111e-002-j4.45892269760586379412e-001
  +7.69244990243931042045e-003-j2.77245965234647839814e-001
  +2.96808858686106909197e-003-j1.72255845528537093747e-001
  +1.14488786552996153582e-003-j1.06993307674241838745e-001
  +4.41570850015171167263e-004-j6.64493304355742026024e-002
  +1.70301735594678547601e-004-j4.12672794507420725996e-002
  +6.56796022839257277780e-005-j2.56279478115026028429e-002
  +2.53302317483578152328e-005-j1.59154539948735893051e-002
</dep>
<dep _net1.v acfrequency>
  +1.00000000000000000000e+001
  +1.00000000000000000000e+001
  +1.00000000000000000000e+001
  +1.00000000000000000000e+001
  +1.00000000000000000000e+001
  +1.00000000000000000000e+001
  +1.00000000000000000000e+001
  +1.00000000000000000000e+001
  +1.00000000000000000000e+001
  +1.00000000000000000000e+001
  +1.00000000000000000000e+001
  +1.00000000000000000000e+001
  +1.00000000000000000000e+001
  +1.00000000000000000000e+001
  +1.00000000000000000000e+001
  +1.00000000000000000000e+001
  +1.00000000000000000000e+001
  +1.00000000000000000000e+001
  +1.00000000000000000000e+001
  +1.00000000000000000000e+001
  +1.00000000000000000000e+001
  +1.00000000000000000000e+001
  +1.00000000000000000000e+001
  +1.00000000000000000000e+001
  +1.00000000000000000000e+001
  +1.00000000000000000000e+001
  +1.00000000000000000000e+001
  +1.00000000000000000000e+001
  +1.00000000000000000000e+001
  +1.00000000000000000000e+001
</dep>
