<Qucs Dataset 0.0.19>
<indep acfrequency 50>
  +1.00000000000000000000e+001
  +1.52641796717523341442e+001
  +2.32995181051537194605e+001
  +3.55648030622312845139e+001
  +5.42867543932386027450e+001
  +8.28642772854684608319e+001
  +1.26485521685529590741e+002
  +1.93069772888324990845e+002
  +2.94705170255181087668e+002
  +4.49843266896944612654e+002
  +6.86648845004300369510e+002
  +1.04811313415468612220e+003
  +1.59985871960605754794e+003
  +2.44205309454865027874e+003
  +3.72759372031493967370e+003
  +5.68986602901829610346e+003
  +8.68511373751352584804e+003
  +1.32571136559010938072e+004
  +2.02358964772515755612e+004
  +3.08884359647747951385e+004
  +4.71486636345739607350e+004
  +7.19685673001151881181e+004
  +1.09854114198755909456e+005
  +1.67683293681100796675e+005
  +2.55954792269953351934e+005
  +3.90693993705461733043e+005
  +5.96362331659463932738e+005
  +9.10298177991522243246e+005
  +1.38949549437313713133e+006
  +2.12095088792019197717e+006
  +3.23745754281764337793e+006
  +4.94171336132383812219e+006
  +7.54312006335461698472e+006
  +1.15139539932644646615e+007
  +1.75751062485479228199e+007
  +2.68269579527972452343e+007
  +4.09491506238042712212e+007
  +6.25055192527397125959e+007
  +9.54095476349992901087e+007
  +1.45634847750124365091e+008
  +2.22299648252619683743e+008
  +3.39322177189532279968e+008
  +5.17947467923120796680e+008
  +7.90604321090770244598e+008
  +1.20679264063933038712e+009
  +1.84206996932671403885e+009
  +2.81176869797422981262e+009
  +4.29193426012878179550e+009
  +6.55128556859549713135e+009
  +9.99999999999999237061e+009
</indep>
<dep Modulo acfrequency>
  -1.28589410038837755546e-006
  -2.99607030752217332826e-006
  -6.98069410060768612476e-006
  -1.62646518819289187345e-005
  -3.78956978067246369598e-005
  -8.82942958463719555556e-005
  -2.05696057257269811431e-004
  -4.79285114509166393446e-004
  -1.11657465634239293044e-003
  -2.60082411871252229540e-003
  -6.05577635827937981600e-003
  -1.40879057671087163511e-002
  -3.27066826377122865654e-002
  -7.55757636436617669107e-002
  -1.72774538692431200992e-001
  -3.85761498232123578589e-001
  -8.20193274029490604349e-001
  -1.59403665513713233004e+000
  -2.70324512627502233642e+000
  -3.90038393795096727246e+000
  -4.85826681114049385712e+000
  -5.45202825367071852725e+000
  -5.76068498219045110886e+000
  -5.90580596344390862384e+000
  -5.97070614830643009441e+000
  -5.99906836595298731396e+000
  -6.01133688520663156396e+000
  -6.01662024615815482775e+000
  -6.01889112157706218653e+000
  -6.01986637383309375338e+000
  -6.02028505767568500318e+000
  -6.02046477466401519507e+000
  -6.02054191181755182782e+000
  -6.02057501927446647727e+000
  -6.02058922890713166254e+000
  -6.02059532761182225613e+000
  -6.02059794514016122235e+000
  -6.02059906856692439447e+000
  -6.02059955073444985629e+000
  -6.02059975767761557108e+000
  -6.02059984649539714496e+000
  -6.02059988461664286064e+000
  -6.02059990097766206674e+000
  -6.02059990799970190523e+000
  -6.02059991101351599241e+000
  -6.02059991230682456376e+000
  -6.02059991286219009510e+000
  -6.02059991310046527246e+000
  -6.02059991320272835935e+000
  -6.02059991324662036050e+000
</dep>
<dep Argumento acfrequency>
  -3.14159193011019383535e-004
  -4.79538089894512950962e-004
  -7.31975034017450149927e-004
  -1.11729798575241215733e-003
  -1.70545711332528151724e-003
  -2.60321688336105812323e-003
  -3.97351344731073502503e-003
  -6.06494517421701795357e-003
  -9.25658461896273696001e-003
  -1.41256606951220883145e-002
  -2.15483162412933304530e-002
  -3.28443833187782030514e-002
  -4.99667591974604502481e-002
  -7.56819216939489947116e-002
  -1.13489858168002930028e-001
  -1.66460683736587761183e-001
  -2.33170144137546081486e-001
  -2.99887333402106048830e-001
  -3.38064951622460974079e-001
  -3.24646243635336451128e-001
  -2.68282295467430875746e-001
  -1.98781692006838983655e-001
  -1.38155797558791537671e-001
  -9.29654318019737385681e-002
  -6.16255992608904165642e-002
  -4.05794279536266511155e-002
  -2.66433575015534301889e-002
  -1.74713648395483332754e-002
  -1.14506480202980712862e-002
  -7.50295709678689120431e-003
  -4.91577006573216349766e-003
  -3.22056500647938418955e-003
  -2.10991320442253677686e-003
  -1.38227262007570577025e-003
  -9.05568571273185590580e-004
  -5.93264479209369157385e-004
  -3.88664684296035787756e-004
  -2.54625384954353952381e-004
  -1.66812375389429760940e-004
  -1.09283554805396764128e-004
  -7.15947786869583306917e-005
  -4.69037843600818095987e-005
  -3.07280086491078864878e-005
  -2.01307959867738510732e-005
  -1.31882593303674607515e-005
  -8.64267349157127537916e-006
  -5.66031420702073220455e-006
  -3.70823347797534119983e-006
  -2.42936964696875771071e-006
  -1.59154943090954766247e-006
</dep>
<dep T acfrequency>
  +9.99999802607989929371e-001-j3.14159141333921561236e-004
  +9.99999540086370153347e-001-j4.79537906106074164527e-004
  +9.99998928424716382324e-001-j7.31974380378662523201e-004
  +9.99997503288344247174e-001-j1.11729566110867662050e-003
  +9.99994182820789223598e-001-j1.70544884585632663780e-003
  +9.99986446462481359809e-001-j2.60318748093931427723e-003
  +9.99968424439430236816e-001-j3.97340889321640133858e-003
  +9.99926431075591204412e-001-j6.06457334177202753156e-003
  +9.99828621487794277911e-001-j9.25526258451937235139e-003
  +9.99600878264975567511e-001-j1.41209620547904871751e-002
  +9.99071051785835217984e-001-j2.15316316682642693026e-002
  +9.97840930299315531649e-001-j3.27852599253055584927e-002
  +9.94998196585297312033e-001-j4.97582522799185841822e-002
  +9.88499051322245358975e-001-j7.49546697570537129307e-002
  +9.73998758573479506140e-001-j1.11016017571970368460e-001
  +9.43337204514552052359e-001-j1.58495190307145511488e-001
  +8.85270212420437019318e-001-j2.10242644654954347061e-001
  +7.95187722709562283541e-001-j2.45882227329109137592e-001
  +6.91087110975209806263e-001-j2.42959403001309554027e-001
  +6.04896176633701543324e-001-j2.03580157295618846547e-001
  +5.51145462226268811889e-001-j1.51515256019965599554e-001
  +5.23312472547963425384e-001-j1.05417099645561160304e-001
  +5.10279126846510999727e-001-j7.09500033441073513218e-002
  +5.04464119152201240226e-001-j4.70332990156505648116e-002
  +5.01925784965432719709e-001-j3.09706931627834330945e-002
  +5.00828355387587853542e-001-j2.03344909241858252946e-002
  +5.00355861210966645913e-001-j1.33343154410657527276e-002
  +5.00152795366375357844e-001-j8.73924119514413177967e-003
  +5.00065590207863563954e-001-j5.72632533623608237089e-003
  +5.00028152994083874283e-001-j3.75176018035032346823e-003
  +5.00012083468344026294e-001-j2.45796423118415209921e-003
  +5.00005186216718744419e-001-j1.61030477317290429164e-003
  +5.00002225903244834626e-001-j1.05496286414563655853e-003
  +5.00000955345491049364e-001-j6.91138070766499860303e-004
  +5.00000410028451525157e-001-j4.52784780714868100027e-004
  +5.00000175981598293795e-001-j2.96632378809498487276e-004
  +5.00000075530160237314e-001-j1.94332381289222385842e-004
  +5.00000032417051043510e-001-j1.27312703482782040628e-004
  +5.00000013913185714642e-001-j8.34061907892369149226e-005
  +5.00000005971447891717e-001-j5.46417782728064515890e-005
  +5.00000002562956069596e-001-j3.57973895881370020875e-005
  +5.00000001099982549491e-001-j2.34518922488320283131e-005
  +5.00000000472105243787e-001-j1.53640043438964149329e-005
  +5.00000000202624472756e-001-j1.00653979988255817894e-005
  +5.00000000086965101787e-001-j6.59412966671295434136e-006
  +5.00000000037324920932e-001-j4.32133674621582031250e-006
  +5.00000000016019630067e-001-j2.83015710363126735000e-006
  +5.00000000006875500169e-001-j1.85411673902166520846e-006
  +5.00000000002950972799e-001-j1.21468482349393741040e-006
  +5.00000000001266542426e-001-j7.95774715457461466779e-007
</dep>
<dep Vi.v acfrequency>
  +1.00000000000000000000e+000
  +1.00000000000000000000e+000
  +1.00000000000000000000e+000
  +1.00000000000000000000e+000
  +1.00000000000000000000e+000
  +1.00000000000000000000e+000
  +1.00000000000000000000e+000
  +1.00000000000000000000e+000
  +1.00000000000000000000e+000
  +1.00000000000000000000e+000
  +1.00000000000000000000e+000
  +1.00000000000000000000e+000
  +1.00000000000000000000e+000
  +1.00000000000000000000e+000
  +1.00000000000000000000e+000
  +1.00000000000000000000e+000
  +1.00000000000000000000e+000
  +1.00000000000000000000e+000
  +1.00000000000000000000e+000
  +1.00000000000000000000e+000
  +1.00000000000000000000e+000
  +1.00000000000000000000e+000
  +1.00000000000000000000e+000
  +1.00000000000000000000e+000
  +1.00000000000000000000e+000
  +1.00000000000000000000e+000
  +1.00000000000000000000e+000
  +1.00000000000000000000e+000
  +1.00000000000000000000e+000
  +1.00000000000000000000e+000
  +1.00000000000000000000e+000
  +1.00000000000000000000e+000
  +1.00000000000000000000e+000
  +1.00000000000000000000e+000
  +1.00000000000000000000e+000
  +1.00000000000000000000e+000
  +1.00000000000000000000e+000
  +1.00000000000000000000e+000
  +1.00000000000000000000e+000
  +1.00000000000000000000e+000
  +1.00000000000000000000e+000
  +1.00000000000000000000e+000
  +1.00000000000000000000e+000
  +1.00000000000000000000e+000
  +1.00000000000000000000e+000
  +1.00000000000000000000e+000
  +1.00000000000000000000e+000
  +1.00000000000000000000e+000
  +1.00000000000000000000e+000
  +1.00000000000000000000e+000
</dep>
<dep Vo.v acfrequency>
  +9.99999802607989929371e-001-j3.14159141333921561236e-004
  +9.99999540086370153347e-001-j4.79537906106074164527e-004
  +9.99998928424716382324e-001-j7.31974380378662523201e-004
  +9.99997503288344247174e-001-j1.11729566110867662050e-003
  +9.99994182820789223598e-001-j1.70544884585632663780e-003
  +9.99986446462481359809e-001-j2.60318748093931427723e-003
  +9.99968424439430236816e-001-j3.97340889321640133858e-003
  +9.99926431075591204412e-001-j6.06457334177202753156e-003
  +9.99828621487794277911e-001-j9.25526258451937235139e-003
  +9.99600878264975567511e-001-j1.41209620547904871751e-002
  +9.99071051785835217984e-001-j2.15316316682642693026e-002
  +9.97840930299315531649e-001-j3.27852599253055584927e-002
  +9.94998196585297312033e-001-j4.97582522799185841822e-002
  +9.88499051322245358975e-001-j7.49546697570537129307e-002
  +9.73998758573479506140e-001-j1.11016017571970368460e-001
  +9.43337204514552052359e-001-j1.58495190307145511488e-001
  +8.85270212420437019318e-001-j2.10242644654954347061e-001
  +7.95187722709562283541e-001-j2.45882227329109137592e-001
  +6.91087110975209806263e-001-j2.42959403001309554027e-001
  +6.04896176633701543324e-001-j2.03580157295618846547e-001
  +5.51145462226268811889e-001-j1.51515256019965599554e-001
  +5.23312472547963425384e-001-j1.05417099645561160304e-001
  +5.10279126846510999727e-001-j7.09500033441073513218e-002
  +5.04464119152201240226e-001-j4.70332990156505648116e-002
  +5.01925784965432719709e-001-j3.09706931627834330945e-002
  +5.00828355387587853542e-001-j2.03344909241858252946e-002
  +5.00355861210966645913e-001-j1.33343154410657527276e-002
  +5.00152795366375357844e-001-j8.73924119514413177967e-003
  +5.00065590207863563954e-001-j5.72632533623608237089e-003
  +5.00028152994083874283e-001-j3.75176018035032346823e-003
  +5.00012083468344026294e-001-j2.45796423118415209921e-003
  +5.00005186216718744419e-001-j1.61030477317290429164e-003
  +5.00002225903244834626e-001-j1.05496286414563655853e-003
  +5.00000955345491049364e-001-j6.91138070766499860303e-004
  +5.00000410028451525157e-001-j4.52784780714868100027e-004
  +5.00000175981598293795e-001-j2.96632378809498487276e-004
  +5.00000075530160237314e-001-j1.94332381289222385842e-004
  +5.00000032417051043510e-001-j1.27312703482782040628e-004
  +5.00000013913185714642e-001-j8.34061907892369149226e-005
  +5.00000005971447891717e-001-j5.46417782728064515890e-005
  +5.00000002562956069596e-001-j3.57973895881370020875e-005
  +5.00000001099982549491e-001-j2.34518922488320283131e-005
  +5.00000000472105243787e-001-j1.53640043438964149329e-005
  +5.00000000202624472756e-001-j1.00653979988255817894e-005
  +5.00000000086965101787e-001-j6.59412966671295434136e-006
  +5.00000000037324920932e-001-j4.32133674621582031250e-006
  +5.00000000016019630067e-001-j2.83015710363126735000e-006
  +5.00000000006875500169e-001-j1.85411673902166520846e-006
  +5.00000000002950972799e-001-j1.21468482349393741040e-006
  +5.00000000001266542426e-001-j7.95774715457461466779e-007
</dep>
<dep V1.i acfrequency>
  -1.99999960521597989691e-004+j6.28318281847839443799e-008
  -1.99999908017274021736e-004+j9.59075812656529080868e-008
  -1.99999785684943287220e-004+j1.46394876110456095830e-007
  -1.99999500657668826710e-004+j2.23459132198122745194e-007
  -1.99998836564157849924e-004+j3.41089769179125923415e-007
  -1.99997289292496306223e-004+j5.20637496198572691242e-007
  -1.99993684409827945578e-004+j7.94681779416051004006e-007
  -1.99985286215118273625e-004+j1.21291466835538042091e-006
  -1.99965724297558860439e-004+j1.85105251690464989167e-006
  -1.99920175652995129852e-004+j2.82419241095718809298e-006
  -1.99814210357167050622e-004+j4.30632633365186923147e-006
  -1.99568186059863111274e-004+j6.55705198506113806634e-006
  -1.98999639317059466657e-004+j9.95165045598357667078e-006
  -1.97699810264449061083e-004+j1.49909339514104483770e-005
  -1.94799751714695918488e-004+j2.22032035143940754268e-005
  -1.88667440902910401234e-004+j3.16990380614290585826e-005
  -1.77054042484253720694e-004+j4.20485289309887851419e-005
  -1.59037544541912459007e-004+j4.91764454658218412228e-005
  -1.38217422195041942604e-004+j4.85918806002618819222e-005
  -1.20979235326755513559e-004+j4.07160314591214350655e-005
  -1.10229092445253781416e-004+j3.03030512039931238357e-005
  -1.04662494509592693360e-004+j2.10834199291122363108e-005
  -1.02055825369302212479e-004+j1.41900006688214686164e-005
  -1.00892823830440276842e-004+j9.40665980313011194317e-006
  -1.00385156993086548994e-004+j6.19413863255668622316e-006
  -1.00165671077517585085e-004+j4.06689818483716602386e-006
  -1.00071172242193324976e-004+j2.66686308821315221247e-006
  -1.00030559073265861597e-004+j1.74784823987323568843e-006
  -1.00013118041572724891e-004+j1.14526506724721618415e-006
  -1.00005630598816778153e-004+j7.50352036070064573028e-007
  -1.00002416693668796238e-004+j4.91592846236830171154e-007
  -1.00001037243343737716e-004+j3.22060954634580864426e-007
  -1.00000445180660081494e-004+j2.10992577644441237741e-007
  -1.00000191069098237867e-004+j1.38227614153300060830e-007
  -1.00000082005690315527e-004+j9.05569561429736101797e-008
  -1.00000035196319659128e-004+j5.93264757618996911871e-008
  -1.00000015106032044188e-004+j3.88664762578444838177e-008
  -1.00000006483410221907e-004+j2.54625406965564126361e-008
  -1.00000002782637149043e-004+j1.66812381578473743871e-008
  -1.00000001194289599312e-004+j1.09283556545612942883e-008
  -1.00000000512581247434e-004+j7.15947791762740075631e-009
  -1.00000000219996497603e-004+j4.69037844976640586114e-009
  -1.00000000094421057800e-004+j3.07280086877928358480e-009
  -1.00000000040524907020e-004+j2.01307959976511722344e-009
  -1.00000000017393019989e-004+j1.31882593334259089474e-009
  -1.00000000007464980695e-004+j8.64000530545462332429e-010
  -1.00000000003203917080e-004+j5.66031420726253489852e-010
  -1.00000000001375111960e-004+j3.70823347804333023164e-010
  -1.00000000000590176692e-004+j2.42936964698787468681e-010
  -1.00000000000253301525e-004+j1.59154943091492306591e-010
</dep>
<dep _net1.v acfrequency>
  +0.00000000000000000000e+000-j8.20003697299398481846e-005
  +2.98023223876953125000e-008+j4.44380711996927857399e-005
  +0.00000000000000000000e+000+j3.47235763911157846451e-005
  +2.98023223876953125000e-008-j2.36125779338181018829e-005
  +0.00000000000000000000e+000+j7.86053715273737907410e-006
  +0.00000000000000000000e+000+j1.07097439467906951904e-005
  +4.62858240000000000000e+007+j2.62144000000000000000e+005
  +0.00000000000000000000e+000+j9.74861904978752136230e-007
  +0.00000000000000000000e+000+j7.75093212723731994629e-007
  +0.00000000000000000000e+000-j9.09436494112014770508e-007
  +0.00000000000000000000e+000-j9.84407961368560791016e-007
  +0.00000000000000000000e+000+j2.60770320892333984375e-008
  +0.00000000000000000000e+000-j1.39698386192321777344e-007
  +2.98023223876953125000e-008-j2.96160578727722167969e-007
  +0.00000000000000000000e+000
  +2.98023223876953125000e-008-j4.84287738800048828125e-008
  +9.21600000000000000000e+003+j4.09600000000000000000e+003
  +0.00000000000000000000e+000+j1.49011611938476562500e-008
  +2.98023223876953125000e-008-j3.72529029846191406250e-008
  -4.09600000000000000000e+003+j4.09600000000000000000e+003
  +0.00000000000000000000e+000+j3.72529029846191406250e-009
  +0.00000000000000000000e+000+j3.72529029846191406250e-009
  -1.49011611938476562500e-008-j1.86264514923095703125e-009
  -2.98023223876953125000e-008-j1.86264514923095703125e-009
  +0.00000000000000000000e+000-j9.31322574615478515625e-010
  -1.49011611938476562500e-008+j9.31322574615478515625e-010
  +1.49011611938476562500e-008+j1.86264514923095703125e-009
  -5.12000000000000000000e+003-j1.31072000000000000000e+005
  +0.00000000000000000000e+000-j4.65661287307739257812e-010
  +0.00000000000000000000e+000-j1.16415321826934814453e-010
  +1.49011611938476562500e-008-j3.49245965480804443359e-010
  +1.49011611938476562500e-008
  -1.02400000000000000000e+003-j5.24288000000000000000e+005
  -1.49011611938476562500e-008+j8.73114913702011108398e-011
  +0.00000000000000000000e+000-j1.45519152283668518066e-011
  +0.00000000000000000000e+000-j7.27595761418342590332e-012
  +1.49011611938476562500e-008+j7.27595761418342590332e-012
  -1.49011611938476562500e-008+j3.63797880709171295166e-012
  +0.00000000000000000000e+000-j7.27595761418342590332e-012
  +0.00000000000000000000e+000+j1.81898940354585647583e-012
  +2.04800000000000000000e+003
  +1.49011611938476562500e-008
  +0.00000000000000000000e+000+j4.54747350886464118958e-013
  +0.00000000000000000000e+000+j9.09494701772928237915e-013
  +0.00000000000000000000e+000
  +0.00000000000000000000e+000+j1.34217728000000000000e+008
  +1.49011611938476562500e-008
  -1.49011611938476562500e-008-j5.68434188608080148697e-014
  +2.98023223876953125000e-008
  +1.49011611938476562500e-008
</dep>
<dep _net2.v acfrequency>
  +9.99999802607989929371e-001-j3.96159511063861409421e-004
  +9.99999569888692541042e-001-j4.35099834906381378787e-004
  +9.99998928424716382324e-001-j6.97250803987546738556e-004
  +9.99997533090666634870e-001-j1.14090823904249472238e-003
  +9.99994182820789223598e-001-j1.69758830870358925873e-003
  +9.99986446462481359809e-001-j2.59247773699252358204e-003
  +4.62858249999684244394e+007+j2.62143996026591106784e+005
  +9.99926431075591204412e-001-j6.06359847986704877942e-003
  +9.99828621487794277911e-001-j9.25448749130664861939e-003
  +9.99600878264975567511e-001-j1.41218714912845991899e-002
  +9.99071051785835217984e-001-j2.15326160762256378634e-002
  +9.97840930299315531649e-001-j3.27852338482734692593e-002
  +9.94998196585297312033e-001-j4.97583919783047765040e-002
  +9.88499081124567746670e-001-j7.49549659176324406529e-002
  +9.73998758573479506140e-001-j1.11016017571970368460e-001
  +9.43337234316874440054e-001-j1.58495238735919391493e-001
  +9.21688527021242043702e+003+j4.09578975735534504565e+003
  +7.95187722709562283541e-001-j2.45882212427947943745e-001
  +6.91087140777532193958e-001-j2.42959440254212538646e-001
  -4.09539510382336629846e+003+j4.09579641984270438115e+003
  +5.51145462226268811889e-001-j1.51515252294675301092e-001
  +5.23312472547963425384e-001-j1.05417095920270861842e-001
  +5.10279111945349805879e-001-j7.09500052067525005528e-002
  +5.04464089349878852531e-001-j4.70333008782957140426e-002
  +5.01925784965432719709e-001-j3.09706940941060077099e-002
  +5.00828340486426659695e-001-j2.03344899928632506791e-002
  +5.00355876112127839761e-001-j1.33343135784206034966e-002
  -5.11949984720463362464e+003-j1.31072008739241195144e+005
