<Qucs Dataset 0.0.19>
<indep acfrequency 50>
  +1.00000000000000000000e+001
  +1.15139539932644741071e+001
  +1.32571136559010920308e+001
  +1.52641796717523359206e+001
  +1.75751062485479216946e+001
  +2.02358964772515683705e+001
  +2.32995181051537230132e+001
  +2.68269579527972652500e+001
  +3.08884359647748141242e+001
  +3.55648030622312916194e+001
  +4.09491506238042575205e+001
  +4.71486636345739498211e+001
  +5.42867543932386169558e+001
  +6.25055192527397451840e+001
  +7.19685673001152252937e+001
  +8.28642772854684608319e+001
  +9.54095476349994129350e+001
  +1.09854114198755880238e+002
  +1.26485521685529647584e+002
  +1.45634847750124436061e+002
  +1.67683293681100849426e+002
  +1.93069772888325104532e+002
  +2.22299648252619590494e+002
  +2.55954792269953657069e+002
  +2.94705170255181201355e+002
  +3.39322177189533135788e+002
  +3.90693993705461878108e+002
  +4.49843266896944840028e+002
  +5.17947467923121507738e+002
  +5.96362331659464530276e+002
  +6.86648845004300369510e+002
  +7.90604321090770667979e+002
  +9.10298177991522379671e+002
  +1.04811313415468612220e+003
  +1.20679264063932987483e+003
  +1.38949549437313862654e+003
  +1.59985871960605891218e+003
  +1.84206996932671813738e+003
  +2.12095088792019259927e+003
  +2.44205309454865255248e+003
  +2.81176869797423114505e+003
  +3.23745754281764720872e+003
  +3.72759372031494240218e+003
  +4.29193426012877989706e+003
  +4.94171336132384021766e+003
  +5.68986602901830156043e+003
  +6.55128556859551281377e+003
  +7.54312006335462592688e+003
  +8.68511373751353312400e+003
  +1.00000000000000072760e+004
</indep>
<dep Modulo acfrequency>
  +7.59684701930498588324e-004
  +1.00713259916248437653e-003
  +1.33518463043570743791e-003
  +1.77010019123143491279e-003
  +2.34669598832897355334e-003
  +3.11113653191268232576e-003
  +4.12463600639617015281e-003
  +5.46837024842266022223e-003
  +7.24999628545277153419e-003
  +9.61230885054303353654e-003
  +1.27447401329821279753e-002
  +1.68986470590660464719e-002
  +2.24076495201327337281e-002
  +2.97147259735265692471e-002
  +3.94083551636012496822e-002
  +5.22708325942273371867e-002
  +6.93430231251144085780e-002
  +9.20114372760399978901e-002
  +1.22125837677338353049e-001
  +1.62158964764684804249e-001
  +2.15424988863434391240e-001
  +2.86380872352016646598e-001
  +3.81046436950014277834e-001
  +5.07596862310693675013e-001
  +6.77208763180013217919e-001
  +9.05280690320883651978e-001
  +1.21319546783824705471e+000
  +1.63079430523334290015e+000
  +2.19942223106426570922e+000
  +2.97346889402951619630e+000
  +4.00828190233148617949e+000
  +5.27321908045796661213e+000
  +6.26208894359731615964e+000
  +5.46721801102708759856e+000
  +2.43134915322262790127e+000
  -1.29216961700401555824e+000
  -4.86754200285261440229e+000
  -8.17333629898641689238e+000
  -1.12535322853619685901e+001
  -1.41657382554111350714e+001
  -1.69557606569388497064e+001
  -1.96569723597591377029e+001
  -2.22932926299283806770e+001
  -2.48819076132436478588e+001
  -2.74352575051068150458e+001
  -2.99624189239405538387e+001
  -3.24700613559369770655e+001
  -3.49631143486553668254e+001
  -3.74452385604059685420e+001
  -3.99191623989108705928e+001
</dep>
<dep Argumento acfrequency>
  -4.99810352580312353132e-003
  -5.75496515891017051958e-003
  -6.62650259207193861183e-003
  -7.63012483517536577865e-003
  -8.78590162815357823833e-003
  -1.01169794867460964560e-002
  -1.16500677149091215468e-002
  -1.34160086691164394390e-002
  -1.54504506854717098968e-002
  -1.77946478837983680654e-002
  -2.04964193721838966455e-002
  -2.36113124765328502574e-002
  -2.72040324138809012922e-002
  -3.13502278139427895121e-002
  -3.61387616061365352094e-002
  -4.16746597730073484178e-002
  -4.80830272270037634152e-002
  -5.55143741070314236663e-002
  -6.41520431828711129585e-002
  -7.42228351543177677918e-002
  -8.60126107061253281083e-002
  -9.98898255764958109548e-002
  -1.16342053488368346592e-001
  -1.36034433939065613206e-001
  -1.59906476034077954518e-001
  -1.89338831874816204692e-001
  -2.26454108790349606384e-001
  -2.74689308335319792853e-001
  -3.39953781586204317744e-001
  -4.33125566124446970129e-001
  -5.75667875942157958313e-001
  -8.11149745822694279163e-001
  -1.20973119750474733536e+000
  -1.75568350362356051519e+000
  -2.21773719026344418026e+000
  -2.50005129691406535741e+000
  -2.66750074463221942267e+000
  -2.77412145679349952943e+000
  -2.84721125615754777627e+000
  -2.90034985118299459828e+000
  -2.94073840001472586181e+000
  -2.97247337032760450271e+000
  -2.99803640312247265953e+000
  -3.01901501611870637376e+000
  -3.03647388905396686809e+000
  -3.05115720529450573650e+000
  -3.06360439030059872323e+000
  -3.07421911382525259171e+000
  -3.08331193173593964829e+000
  -3.09112748953956062437e+000
</dep>
<dep T acfrequency>
  +1.00007497417249302529e+000-j4.99851987728808060119e-003
  +1.00009939546147652578e+000-j5.75560071757873475268e-003
  +1.00013177206351633330e+000-j6.62747278557180869579e-003
  +1.00017469588826446447e+000-j7.63160588817751728286e-003
  +1.00023160364573859837e+000-j8.78816260164545434708e-003
  +1.00030705245098117118e+000-j1.01204312188730941729e-002
  +1.00040708553193047337e+000-j1.16553375970085693059e-002
  +1.00053971764191840244e+000-j1.34240549307093719189e-002
  +1.00071557961128543290e+000-j1.54627371356660606866e-002
  +1.00094877465267684258e+000-j1.78134112369034529333e-002
  +1.00125801675986214612e+000-j2.05250785088747292328e-002
  +1.00166814550757399260e+000-j2.36550956033170223236e-002
  +1.00221214383596768371e+000-j2.72709393499176652731e-002
  +1.00293383062504237735e+000-j3.14525089752166892021e-002
  +1.00389145946584923408e+000-j3.62951961387598873165e-002
  +1.00516254211377997763e+000-j4.19140749066615053708e-002
  +1.00685033302589688198e+000-j4.84497559813701350606e-002
  +1.00909258183657479790e+000-j5.60767615786209386308e-002
  +1.01207340352016972318e+000-j6.50157916646808831107e-002
  +1.01603946639652775730e+000-j7.55521204200604729051e-002
  +1.02132220136736107108e+000-j8.80638665599331460498e-002
  +1.02836844149150463679e+000-j1.03066571129114062377e-001
  +1.03778281921992521220e+000-j1.21285497567278091613e-001
  +1.05038617871715667107e+000-j1.43776665303335438040e-001
  +1.06729417734721887534e+000-j1.72136943164976852216e-001
  +1.09001511415791774162e+000-j2.08884285492243637616e-001
  +1.12054073163707390570e+000-j2.58179488758125352810e-001
  +1.16130086181021385805e+000-j3.27269934852560062666e-001
  +1.21444234493896630056e+000-j4.29529891606539149240e-001
  +1.27819129120246621767e+000-j5.91047722906823169708e-001
  +1.33072243982476079438e+000-j8.63631231061222082168e-001
  +1.26377311252394664010e+000-j1.33059702079807751218e+000
  +7.26460980811513556965e-001-j1.92379159436520130733e+000
  -3.44977363401497427731e-001-j1.84457118228151761841e+000
  -7.97449912797122073549e-001-j1.05568177332897072951e+000
  -6.90428223814241848189e-001-j5.15710099015486700402e-001
  -5.08007623277934472483e-001-j2.60671101656676285074e-001
  -3.64188292025762527793e-001-j1.40196750483762289097e-001
  -2.61955227433645632118e-001-j7.94223693138972619554e-002
  -1.90086386851255173536e-001-j4.67677774641237151143e-002
  -1.39120835243840973439e-001-j2.83249388631708516606e-002
  -1.02544140240812528542e-001-j1.75094417856410007606e-002
  -7.60054712929892628548e-002-j1.09866366923927708671e-002
  -5.65761927330292735405e-002-j6.96991938320207660845e-003
  -4.22506335416512612824e-002-j4.45776587732340558168e-003
  -3.16301079224890827057e-002-j2.86830680606446879882e-003
  -2.37232871121044290585e-002-j1.85389806018669838113e-003
  -1.78179551959082964341e-002-j1.20227838853637081229e-003
  -1.33967694191719395580e-002-j7.81658597675005694695e-004
  -1.00806521554240198502e-002-j5.09154064608206315123e-004
</dep>
<dep Vi.v acfrequency>
  +1.00000000000000000000e+001
  +1.00000000000000000000e+001
  +1.00000000000000000000e+001
  +1.00000000000000000000e+001
  +1.00000000000000000000e+001
  +1.00000000000000000000e+001
  +1.00000000000000000000e+001
  +1.00000000000000000000e+001
  +1.00000000000000000000e+001
  +1.00000000000000000000e+001
  +1.00000000000000000000e+001
  +1.00000000000000000000e+001
  +1.00000000000000000000e+001
  +1.00000000000000000000e+001
  +1.00000000000000000000e+001
  +1.00000000000000000000e+001
  +1.00000000000000000000e+001
  +1.00000000000000000000e+001
  +1.00000000000000000000e+001
  +1.00000000000000000000e+001
  +1.00000000000000000000e+001
  +1.00000000000000000000e+001
  +1.00000000000000000000e+001
  +1.00000000000000000000e+001
  +1.00000000000000000000e+001
  +1.00000000000000000000e+001
  +1.00000000000000000000e+001
  +1.00000000000000000000e+001
  +1.00000000000000000000e+001
  +1.00000000000000000000e+001
  +1.00000000000000000000e+001
  +1.00000000000000000000e+001
  +1.00000000000000000000e+001
  +1.00000000000000000000e+001
  +1.00000000000000000000e+001
  +1.00000000000000000000e+001
  +1.00000000000000000000e+001
  +1.00000000000000000000e+001
  +1.00000000000000000000e+001
  +1.00000000000000000000e+001
  +1.00000000000000000000e+001
  +1.00000000000000000000e+001
  +1.00000000000000000000e+001
  +1.00000000000000000000e+001
  +1.00000000000000000000e+001
  +1.00000000000000000000e+001
  +1.00000000000000000000e+001
  +1.00000000000000000000e+001
  +1.00000000000000000000e+001
  +1.00000000000000000000e+001
</dep>
<dep Vo.v acfrequency>
  +1.00007497417249293648e+001-j4.99851987728808025424e-002
  +1.00009939546147652578e+001-j5.75560071757873492615e-002
  +1.00013177206351642212e+001-j6.62747278557180852232e-002
  +1.00017469588826450888e+001-j7.63160588817751728286e-002
  +1.00023160364573868719e+001-j8.78816260164545504097e-002
  +1.00030705245098108236e+001-j1.01204312188730938260e-001
  +1.00040708553193038455e+001-j1.16553375970085693059e-001
  +1.00053971764191835803e+001-j1.34240549307093726128e-001
  +1.00071557961128547731e+001-j1.54627371356660603396e-001
  +1.00094877465267693140e+001-j1.78134112369034536272e-001
  +1.00125801675986210171e+001-j2.05250785088747278451e-001
  +1.00166814550757408142e+001-j2.36550956033170223236e-001
  +1.00221214383596777253e+001-j2.72709393499176666609e-001
  +1.00293383062504233294e+001-j3.14525089752166864265e-001
  +1.00389145946584932290e+001-j3.62951961387598887043e-001
  +1.00516254211377997763e+001-j4.19140749066615025953e-001
  +1.00685033302589683757e+001-j4.84497559813701350606e-001
  +1.00909258183657488672e+001-j5.60767615786209372430e-001
  +1.01207340352016963436e+001-j6.50157916646808775596e-001
  +1.01603946639652775730e+001-j7.55521204200604756807e-001
  +1.02132220136736115990e+001-j8.80638665599331460498e-001
  +1.02836844149150472560e+001-j1.03066571129114059602e+000
  +1.03778281921992512338e+001-j1.21285497567278088837e+000
  +1.05038617871715658225e+001-j1.43776665303335438040e+000
  +1.06729417734721891975e+001-j1.72136943164976852216e+000
  +1.09001511415791778603e+001-j2.08884285492243648719e+000
  +1.12054073163707386129e+001-j2.58179488758125330605e+000
  +1.16130086181021390246e+001-j3.27269934852560062666e+000
  +1.21444234493896630056e+001-j4.29529891606539138138e+000
  +1.27819129120246621767e+001-j5.91047722906823214117e+000
  +1.33072243982476088320e+001-j8.63631231061222059964e+000
  +1.26377311252394655128e+001-j1.33059702079807742336e+001
  +7.26460980811513579170e+000-j1.92379159436520126292e+001
  -3.44977363401497427731e+000-j1.84457118228151770722e+001
  -7.97449912797122095753e+000-j1.05568177332897068510e+001
  -6.90428223814241803780e+000-j5.15710099015486722607e+000
  -5.08007623277934428074e+000-j2.60671101656676285074e+000
  -3.64188292025762549997e+000-j1.40196750483762300199e+000
  -2.61955227433645632118e+000-j7.94223693138972564043e-001
  -1.90086386851255184638e+000-j4.67677774641237165021e-001
  -1.39120835243840978990e+000-j2.83249388631708509667e-001
  -1.02544140240812531317e+000-j1.75094417856410000667e-001
  -7.60054712929892684059e-001-j1.09866366923927705201e-001
  -5.65761927330292735405e-001-j6.96991938320207643498e-002
  -4.22506335416512612824e-001-j4.45776587732340523473e-002
  -3.16301079224890813180e-001-j2.86830680606446897229e-002
  -2.37232871121044297524e-001-j1.85389806018669833776e-002
  -1.78179551959082971280e-001-j1.20227838853637081229e-002
  -1.33967694191719388641e-001-j7.81658597675005673011e-003
  -1.00806521554240191563e-001-j5.09154064608206315123e-003
</dep>
<dep V1.i acfrequency>
  -3.04644278511029327036e-006-j6.09514669228465306820e-004
  -4.03893394455939144680e-006-j7.01809523361439108885e-004
  -5.35486510911675812370e-006-j8.08086416047043565314e-004
  -7.09971648772901432300e-006-j9.30466913917515361064e-004
  -9.41342454084670771292e-006-j1.07139628055201658122e-003
  -1.24816807217889799730e-005-j1.23369380043444540340e-003
  -1.65509679916249282544e-005-j1.42061141630795990248e-003
  -2.19485963602788209498e-005-j1.63590230510099314022e-003
  -2.91094429038253927505e-005-j1.88390145755449505208e-003
  -3.86117161486448822925e-005-j2.16962093628403698831e-003
  -5.12249245700038800008e-005-j2.49886334717106493863e-003
  -6.79744493029127427874e-005-j2.87835829291648373496e-003
  -9.02288823122427075451e-005-j3.31592837407520190859e-003
  -1.19818882536207224057e-004-j3.82069395283981139838e-003
  -1.59200199427092265337e-004-j4.40332984946857457220e-003
  -2.11679516452553619001e-004-j5.07639310529189608651e-003
  -2.81731257293303162265e-004-j5.85475002884719951390e-003
  -3.75448915701814193817e-004-j6.75614470286611985828e-003
  -5.01200244349553759686e-004-j7.80197278470658346639e-003
  -6.70600026652947464427e-004-j9.01835831287993092142e-003
  -8.99993034763623702375e-004-j1.04376846416857332195e-002
  -1.21278471914775627313e-003-j1.21008152093495593982e-002
  -1.64323339482009222155e-003-j1.40603734108174661249e-002
  -2.24286572647269550479e-003-j1.63856572611068875001e-002
  -3.09181460358095086538e-003-j1.91700611336895476722e-002
  -4.31985944528241044837e-003-j2.25422035712232252114e-002
  -6.14766330145208490798e-003-j2.66818528722131409481e-002
  -8.97261301329705003582e-003-j3.18388648493657736016e-002
  -1.35590951791959776762e-002-j3.83366551815149808613e-002
  -2.14824769855042757571e-002-j4.64576952623802705289e-002
  -3.61422042271200560926e-002-j5.56895587606981296025e-002
  -6.41146584467739838464e-002-j6.08947564117425788055e-002
  -1.06731668567130386083e-001-j4.03039460500979260238e-002
  -1.17829812138396494703e-001+j2.20368930795721423843e-002
  -7.76456766630011091523e-002+j5.86526542830523647809e-002
  -4.36731363608270639620e-002+j5.84692175382384993210e-002
  -2.54171073186924036114e-002+j4.95340074043777722768e-002
  -1.57396718116878976679e-002+j4.08868548976002582629e-002
  -1.02665624580180227243e-002+j3.38617410546036765040e-002
  -6.96070832980774049231e-003+j2.82916137580749155189e-002
  -4.85400451111761121331e-003+j2.38409397854727825306e-002
  -3.45484036372769925602e-003+j2.02332912210966484046e-002
  -2.49600204881789914518e-003+j1.72673236933399004700e-002
  -1.82319205132154397477e-003+j1.47992048707895427345e-002
  -1.34259927757041292763e-003+j1.27251344352730302173e-002
  -9.94670520776023015658e-004+j1.09686787525465137549e-002
  -7.40225399868705267493e-004+j9.47224664930554349773e-003
  -5.52723161240299622372e-004+j8.19144435816533851569e-003
  -4.13755921245195117716e-004+j7.09132182416493100224e-003
  -3.10313605770193875859e-004+j6.14384473444565433475e-003
</dep>
<dep _net0.v acfrequency>
  +1.00009765625000000000e+001-j3.76968383789062500000e-002
  +9.93750000000000000000e+000-j1.03100585937500000000e+000
  +1.00039062500000000000e+001-j2.05322265625000000000e-001
  +1.00078125000000000000e+001-j7.02575683593750000000e-001
  +1.00000000000000000000e+001+j2.82958984375000000000e+000
  +9.46875000000000000000e+000-j2.14062500000000000000e+000
  +1.00156250000000000000e+001+j3.31298828125000000000e-001
  +1.00625000000000000000e+001+j9.29199218750000000000e-001
  +1.02500000000000000000e+001+j7.26171875000000000000e+000
  +9.87500000000000000000e+000+j1.18359375000000000000e+000
  +1.00000000000000000000e+001-j3.33203125000000000000e+000
  -6.25049600000000000000e+006+j1.83500800000000000000e+006
  +9.87500000000000000000e+000-j2.21093750000000000000e+000
  +1.01250000000000000000e+001+j6.21093750000000000000e-001
  +9.50000000000000000000e+000-j1.28125000000000000000e+000
  +9.00000000000000000000e+000+j1.25000000000000000000e-001
  +6.50000000000000000000e+000-j7.12500000000000000000e+000
  +1.00000000000000000000e+001-j2.37500000000000000000e+000
  +9.00000000000000000000e+000-j3.06250000000000000000e+000
  +6.00000000000000000000e+000-j1.58750000000000000000e+001
  +1.35000000000000000000e+001-j3.00000000000000000000e+000
  +8.00000000000000000000e+000-j1.15000000000000000000e+001
  +1.10000000000000000000e+001-j4.75000000000000000000e+000
  +3.75000000000000000000e+000-j4.00000000000000000000e+000
  +8.00000000000000000000e+000+j4.00000000000000000000e+000
  +0.00000000000000000000e+000-j8.00000000000000000000e+000
  +8.00000000000000000000e+000-j8.00000000000000000000e+000
  +3.20000000000000000000e+001-j8.00000000000000000000e+000
  +0.00000000000000000000e+000-j6.40000000000000000000e+001
  +1.14440917968750000000e-005+j7.62939453125000000000e-006
  -7.62939453125000000000e-006-j7.62939453125000000000e-006
  +0.00000000000000000000e+000-j1.20000000000000000000e+001
  +1.60000000000000000000e+001+j1.20000000000000000000e+001
  -1.52587890625000000000e-005+j3.81469726562500000000e-006
  +1.60000000000000000000e+001
  +0.00000000000000000000e+000
  +8.00000000000000000000e+000-j3.20000000000000000000e+001
  +1.60000000000000000000e+001
  -3.27680000000000000000e+004
  +1.10000000000000000000e+001
  +1.20000000000000000000e+001
  +1.00000000000000000000e+001-j4.00000000000000000000e+000
  -2.00000000000000000000e+000-j8.75000000000000000000e-001
  +9.75000000000000000000e+000
  +1.02500000000000000000e+001-j2.00000000000000000000e+000
  +9.87500000000000000000e+000+j2.00000000000000000000e+000
  +1.00000000000000000000e+001+j1.00000000000000000000e+000
  +1.00000000000000000000e+001+j8.00000000000000000000e+000
  +1.00625000000000000000e+001+j1.00000000000000000000e+000
  +9.87500000000000000000e+000
</dep>
<dep _net1.v acfrequency>
  +2.26820775070635249904e-004+j1.22883603939745525424e-002
  -6.34939546147652578156e-002-j9.73449852199212650739e-001
  +2.58852936483577877880e-003-j1.39047537769281914777e-001
  +6.06554111735491119362e-003-j6.26259624711974827171e-001
  -2.31603645738687191624e-003+j2.91747146976645455041e+000
  -5.34320524509810823588e-001-j2.03942068781126906174e+000
  +1.15541446806961545235e-002+j4.47852204095085693059e-001
  +5.71028235808164197351e-002+j1.06343976805709372613e+000
  +2.42844203887145226872e-001+j7.41634612135666060340e+000
  -1.34487746526769313959e-001+j1.36172786236903453627e+000
  -1.25801675986210170777e-002-j3.12678046491125272155e+000
  -6.25050601668145507574e+006+j1.83500823655095603317e+006
  -1.47121438359677725316e-001-j1.93822810650082333339e+000
  +9.56616937495766705979e-002+j9.35618839752166864265e-001
  -5.38914594658493228962e-001-j9.18298038612401112957e-001
  -1.05162542113779977626e+000+j5.44140749066615025953e-001
  -3.56850333025896837569e+000-j6.64050244018629864939e+000
  -9.09258183657488672225e-002-j1.81423238421379062757e+000
  -1.12073403520169634362e+000-j2.41234208335319122440e+000
  -4.16039466396527668479e+000-j1.51194787957993952432e+001
  +3.28677798632638840104e+000-j2.11936133440066853950e+000
  -2.28368441491504636787e+000-j1.04693342887088594040e+001
  +6.22171807800748766226e-001-j3.53714502432721911163e+000
  -6.75386178717156582252e+000-j2.56223334696664561960e+000
  -2.67294177347218919749e+000+j5.72136943164976852216e+000
  -1.09001511415791778603e+001-j5.91115714507756351281e+000
  -3.20540731637073861293e+000-j5.41820511241874669395e+000
  +2.03869913818978609754e+001-j4.72730065147439937334e+000
