<Qucs Dataset 0.0.19>
<indep time 101>
  +0.00000000000000000000e+000
  +5.00000000000000010408e-004
  +1.00000000000000002082e-003
  +1.50000000000000003123e-003
  +2.00000000000000004163e-003
  +2.50000000000000005204e-003
  +3.00000000000000006245e-003
  +3.50000000000000007286e-003
  +4.00000000000000008327e-003
  +4.50000000000000052736e-003
  +5.00000000000000010408e-003
  +5.50000000000000054817e-003
  +6.00000000000000012490e-003
  +6.50000000000000056899e-003
  +7.00000000000000014572e-003
  +7.50000000000000058981e-003
  +8.00000000000000016653e-003
  +8.50000000000000061062e-003
  +9.00000000000000105471e-003
  +9.49999999999999976408e-003
  +1.00000000000000002082e-002
  +1.05000000000000006523e-002
  +1.10000000000000010963e-002
  +1.14999999999999998057e-002
  +1.20000000000000002498e-002
  +1.25000000000000006939e-002
  +1.30000000000000011380e-002
  +1.35000000000000015821e-002
  +1.40000000000000002914e-002
  +1.45000000000000007355e-002
  +1.50000000000000011796e-002
  +1.55000000000000016237e-002
  +1.60000000000000003331e-002
  +1.65000000000000007772e-002
  +1.70000000000000012212e-002
  +1.75000000000000016653e-002
  +1.80000000000000021094e-002
  +1.85000000000000025535e-002
  +1.89999999999999995282e-002
  +1.94999999999999999722e-002
  +2.00000000000000004163e-002
  +2.05000000000000008604e-002
  +2.10000000000000013045e-002
  +2.15000000000000017486e-002
  +2.20000000000000021927e-002
  +2.25000000000000026368e-002
  +2.29999999999999996114e-002
  +2.35000000000000000555e-002
  +2.40000000000000004996e-002
  +2.45000000000000009437e-002
  +2.50000000000000013878e-002
  +2.55000000000000018319e-002
  +2.60000000000000022760e-002
  +2.65000000000000027200e-002
  +2.70000000000000031641e-002
  +2.75000000000000001388e-002
  +2.80000000000000005829e-002
  +2.85000000000000010270e-002
  +2.90000000000000014710e-002
  +2.95000000000000019151e-002
  +3.00000000000000023592e-002
  +3.05000000000000028033e-002
  +3.10000000000000032474e-002
  +3.15000000000000002220e-002
  +3.20000000000000006661e-002
  +3.25000000000000011102e-002
  +3.30000000000000015543e-002
  +3.35000000000000019984e-002
  +3.40000000000000024425e-002
  +3.45000000000000028866e-002
  +3.50000000000000033307e-002
  +3.55000000000000037748e-002
  +3.60000000000000042188e-002
  +3.65000000000000046629e-002
  +3.70000000000000051070e-002
  +3.75000000000000055511e-002
  +3.79999999999999990563e-002
  +3.84999999999999995004e-002
  +3.89999999999999999445e-002
  +3.95000000000000003886e-002
  +4.00000000000000008327e-002
  +4.05000000000000012768e-002
  +4.10000000000000017208e-002
  +4.15000000000000021649e-002
  +4.20000000000000026090e-002
  +4.25000000000000030531e-002
  +4.30000000000000034972e-002
  +4.35000000000000039413e-002
  +4.40000000000000043854e-002
  +4.45000000000000048295e-002
  +4.50000000000000052736e-002
  +4.55000000000000057176e-002
  +4.59999999999999992228e-002
  +4.64999999999999996669e-002
  +4.70000000000000001110e-002
  +4.75000000000000005551e-002
  +4.80000000000000009992e-002
  +4.85000000000000014433e-002
  +4.90000000000000018874e-002
  +4.95000000000000023315e-002
  +5.00000000000000027756e-002
</indep>
<dep VC.Vt time>
  +9.99999990000000315520e-008
  +4.87708356474782889212e-001
  +9.51640926397304687256e-001
  +1.39294821276954161604e+000
  +1.81273608117047135835e+000
  +2.21205393729384613977e+000
  +2.59188860717314062398e+000
  +2.95320481593774841755e+000
  +3.29689198337496458535e+000
  +3.62381679771751752384e+000
  +3.93480271826780025890e+000
  +4.23061527124521941090e+000
  +4.51200577775360933686e+000
  +4.77966691162927403980e+000
  +5.03427849344281330701e+000
  +5.27646727774729207283e+000
  +5.50684838902924234105e+000
  +5.72598893586010682100e+000
  +5.93444153280117259186e+000
  +6.13273123094225347529e+000
  +6.32134614229401048391e+000
  +6.50076190383003993389e+000
  +6.67142717762443915319e+000
  +6.83377183593265069561e+000
  +6.98819550807646816537e+000
  +7.13508760975767231116e+000
  +7.27481547166362130241e+000
  +7.40772850898390800012e+000
  +7.53416150351601388024e+000
  +7.65442568405171996915e+000
  +7.76882432508005660310e+000
  +7.87764350142030167490e+000
  +7.98115533541521848804e+000
  +8.07961867742297101813e+000
  +8.17327975311998855545e+000
  +8.26237277923353197195e+000
  +8.34712054924361623875e+000
  +8.42773499051905794488e+000
  +8.50441915498086231651e+000
  +8.57736180917641632959e+000
  +8.64674689520786898811e+000
  +8.71274792323030489172e+000
  +8.77552994094004468195e+000
  +8.83524994630671223206e+000
  +8.89205728017553020948e+000
  +8.94609399972151386748e+000
  +8.99749621281237033088e+000
  +9.04639045167756172816e+000
  +9.09290001466944453057e+000
  +9.13714120749504310481e+000
  +9.17922466338504072780e+000
  +9.21925561975249152624e+000
  +9.25733418135829566609e+000
  +9.29355557064156911906e+000
  +9.32801036584083220760e+000
  +9.36078535180804749416e+000
  +9.39196120779409504564e+000
  +9.42161655107097217865e+000
  +9.44982554027284216147e+000
  +9.47665871715977203849e+000
  +9.50218318302038866818e+000
  +9.52646276647093692702e+000
  +9.54955818307049675298e+000
  +9.57152718715138028927e+000
  +9.59242471624445158795e+000
  +9.61230302846051110066e+000
  +9.63121183317130480361e+000
  +9.64919841531695965386e+000
  +9.66630775365062966387e+000
  +9.68258263321616396979e+000
  +9.69806375233994444329e+000
  +9.71278982440454363712e+000
  +9.72679767465862887832e+000
  +9.74012233230530100059e+000
  +9.75279711809901961317e+000
  +9.76485372767028003693e+000
  +9.77632252924709987951e+000
  +9.78723175455230887110e+000
  +9.79760891376986364776e+000
  +9.80747995689288565302e+000
  +9.81686956827822676530e+000
  +9.82580122837420510962e+000
  +9.83429727243782814128e+000
  +9.84237894638817856219e+000
  +9.85006645993573748399e+000
  +9.85737903712048790794e+000
  +9.86433496438514545446e+000
  +9.87095163630378102937e+000
  +9.87724559908015109500e+000
  +9.88323259192450720434e+000
  +9.88892758641239133510e+000
  +9.89434482392381120519e+000
  +9.89949794941450100794e+000
  +9.90439964787247362210e+000
  +9.90906228008619827108e+000
  +9.91349750582414834810e+000
  +9.91771641618312038702e+000
  +9.92172956132356631542e+000
  +9.92554697685220688186e+000
  +9.92917820891790903204e+000
  +9.93263233808359302657e+000
</dep>
<dep V1.It time>
  -9.99999990000000060775e-003
  -9.51229164352521659731e-003
  -9.04835907360269572908e-003
  -8.60705178723045888356e-003
  -8.18726391882952826695e-003
  -7.78794606270615408922e-003
  -7.40811139282685979235e-003
  -7.04679518406225134652e-003
  -6.70310801662503570608e-003
  -6.37618320228248297576e-003
  -6.06519728173219967171e-003
  -5.76938472875478114421e-003
  -5.48799422224639094070e-003
  -5.22033308837072541203e-003
  -4.96572150655718701912e-003
  -4.72353272225270806595e-003
  -4.49315161097075827651e-003
  -4.27401106413989335248e-003
  -4.06555846719882773427e-003
  -3.86726876905774683349e-003
  -3.67865385770598960977e-003
  -3.49923809616996001753e-003
  -3.32857282237556100640e-003
  -3.16622816406734964786e-003
  -3.01180449192353216076e-003
  -2.86491239024232744251e-003
  -2.72518452833637883984e-003
  -2.59227149101609165988e-003
  -2.46583849648398601220e-003
  -2.34557431594827970125e-003
  -2.23117567491994345588e-003
  -2.12235649857969851592e-003
  -2.01884466458478184503e-003
  -1.92038132257702832441e-003
  -1.82672024688001165271e-003
  -1.73762722076646787539e-003
  -1.65287945075638436840e-003
  -1.57226500948094228063e-003
  -1.49558084501913695491e-003
  -1.42263819082358365480e-003
  -1.35325310479213049321e-003
  -1.28725207676969564952e-003
  -1.22447005905995534927e-003
  -1.16475005369328743314e-003
  -1.10794271982447042717e-003
  -1.05390600027848607180e-003
  -1.00250378718762895788e-003
  -9.53609548322438354238e-004
  -9.07099985330554747787e-004
  -8.62858792504956066856e-004
  -8.20775336614959797818e-004
  -7.80744380247507950739e-004
  -7.42665818641704872545e-004
  -7.06444429358430944256e-004
  -6.71989634159167025657e-004
  -6.39214648191951755572e-004
  -6.08038792205905565848e-004
  -5.78383448929027654817e-004
  -5.50174459727157446481e-004
  -5.23341282840228427288e-004
  -4.97816816979611558198e-004
  -4.73537233529062627155e-004
  -4.50441816929503745758e-004
  -4.28472812848618980416e-004
  -4.07575283755549032643e-004
  -3.87696971539489140465e-004
  -3.68788166828695382869e-004
  -3.50801584683040350472e-004
  -3.33692246349369576758e-004
  -3.17417366783836064469e-004
  -3.01936247660056081895e-004
  -2.87210175595456506433e-004
  -2.73202325341370276437e-004
  -2.59877667694699326841e-004
  -2.47202881900981138834e-004
  -2.35146272329719852046e-004
  -2.23677470752900589080e-004
  -2.12768245447691231034e-004
  -2.02391086230135642523e-004
  -1.92520043107114591360e-004
  -1.83130431721773717386e-004
  -1.74198771625794999454e-004
  -1.65702727562171554495e-004
  -1.57621053611821078724e-004
  -1.49933540064263074809e-004
  -1.42620962879512057798e-004
  -1.35665035614854960575e-004
  -1.29048363696218502039e-004
  -1.22754400919849684546e-004
  -1.16767408075493388285e-004
  -1.11072413587608479716e-004
  -1.05655176076189561991e-004
  -1.00502050585498742480e-004
  -9.56003521275266876555e-005
  -9.09377199138022238598e-005
  -8.65024941758525076638e-005
  -8.22835838168803763689e-005
  -7.82704386764340802026e-005
  -7.44530231477930494032e-005
  -7.08217910820910066675e-005
  -6.73676619164067028156e-005
</dep>
<dep IC.It time>
  +9.99999990000000234247e-003
  +9.51229164352521833203e-003
  +9.04835907360269572908e-003
  +8.60705178723045714884e-003
  +8.18726391882952826695e-003
  +7.78794606270615408922e-003
  +7.40811139282685892499e-003
  +7.04679518406225221389e-003
  +6.70310801662503483872e-003
  +6.37618320228248210840e-003
  +6.06519728173219967171e-003
  +5.76938472875478027685e-003
  +5.48799422224639094070e-003
  +5.22033308837072541203e-003
  +4.96572150655718701912e-003
  +4.72353272225270806595e-003
  +4.49315161097075827651e-003
  +4.27401106413989335248e-003
  +4.06555846719882686691e-003
  +3.86726876905774683349e-003
  +3.67865385770598917609e-003
  +3.49923809616996001753e-003
  +3.32857282237556057272e-003
  +3.16622816406734964786e-003
  +3.01180449192353216076e-003
  +2.86491239024232744251e-003
  +2.72518452833637840615e-003
  +2.59227149101609165988e-003
  +2.46583849648398601220e-003
  +2.34557431594827970125e-003
  +2.23117567491994345588e-003
  +2.12235649857969851592e-003
  +2.01884466458478141135e-003
  +1.92038132257702832441e-003
  +1.82672024688001143587e-003
  +1.73762722076646787539e-003
  +1.65287945075638415156e-003
  +1.57226500948094228063e-003
  +1.49558084501913695491e-003
  +1.42263819082358365480e-003
  +1.35325310479213027637e-003
  +1.28725207676969564952e-003
  +1.22447005905995534927e-003
  +1.16475005369328743314e-003
  +1.10794271982447021033e-003
  +1.05390600027848585496e-003
  +1.00250378718762895788e-003
  +9.53609548322438245818e-004
  +9.07099985330554639366e-004
  +8.62858792504955958436e-004
  +8.20775336614959689398e-004
  +7.80744380247507950739e-004
  +7.42665818641704872545e-004
  +7.06444429358430944256e-004
  +6.71989634159167025657e-004
  +6.39214648191951863992e-004
  +6.08038792205905565848e-004
  +5.78383448929027654817e-004
  +5.50174459727157338061e-004
  +5.23341282840228427288e-004
  +4.97816816979611558198e-004
  +4.73537233529062572945e-004
  +4.50441816929503691547e-004
  +4.28472812848618926206e-004
  +4.07575283755548978433e-004
  +3.87696971539489086255e-004
  +3.68788166828695328659e-004
  +3.50801584683040296262e-004
  +3.33692246349369522548e-004
  +3.17417366783836064469e-004
  +3.01936247660056027685e-004
  +2.87210175595456452223e-004
  +2.73202325341370222227e-004
  +2.59877667694699326841e-004
  +2.47202881900981138834e-004
  +2.35146272329719824941e-004
  +2.23677470752900589080e-004
  +2.12768245447691203929e-004
  +2.02391086230135642523e-004
  +1.92520043107114564255e-004
  +1.83130431721773690281e-004
  +1.74198771625794972349e-004
  +1.65702727562171527390e-004
  +1.57621053611821051619e-004
  +1.49933540064263074809e-004
  +1.42620962879512030693e-004
  +1.35665035614854933470e-004
  +1.29048363696218474934e-004
  +1.22754400919849657441e-004
  +1.16767408075493388285e-004
  +1.11072413587608466163e-004
  +1.05655176076189548438e-004
  +1.00502050585498728928e-004
  +9.56003521275266741029e-005
  +9.09377199138022238598e-005
  +8.65024941758524941113e-005
  +8.22835838168803628163e-005
  +7.82704386764340802026e-005
  +7.44530231477930494032e-005
  +7.08217910820909931149e-005
  +6.73676619164067028156e-005
</dep>
<dep _net2.Vt time>
  +9.99999990000000315520e-008
  +4.87708356474782889212e-001
  +9.51640926397304687256e-001
  +1.39294821276954161604e+000
  +1.81273608117047135835e+000
  +2.21205393729384613977e+000
  +2.59188860717314062398e+000
  +2.95320481593774841755e+000
  +3.29689198337496458535e+000
  +3.62381679771751752384e+000
  +3.93480271826780025890e+000
  +4.23061527124521941090e+000
  +4.51200577775360933686e+000
  +4.77966691162927403980e+000
  +5.03427849344281330701e+000
  +5.27646727774729207283e+000
  +5.50684838902924234105e+000
  +5.72598893586010682100e+000
  +5.93444153280117259186e+000
  +6.13273123094225347529e+000
  +6.32134614229401048391e+000
  +6.50076190383003993389e+000
  +6.67142717762443915319e+000
  +6.83377183593265069561e+000
  +6.98819550807646816537e+000
  +7.13508760975767231116e+000
  +7.27481547166362130241e+000
  +7.40772850898390800012e+000
  +7.53416150351601388024e+000
  +7.65442568405171996915e+000
  +7.76882432508005660310e+000
  +7.87764350142030167490e+000
  +7.98115533541521848804e+000
  +8.07961867742297101813e+000
  +8.17327975311998855545e+000
  +8.26237277923353197195e+000
  +8.34712054924361623875e+000
  +8.42773499051905794488e+000
  +8.50441915498086231651e+000
  +8.57736180917641632959e+000
  +8.64674689520786898811e+000
  +8.71274792323030489172e+000
  +8.77552994094004468195e+000
  +8.83524994630671223206e+000
  +8.89205728017553020948e+000
  +8.94609399972151386748e+000
  +8.99749621281237033088e+000
  +9.04639045167756172816e+000
  +9.09290001466944453057e+000
  +9.13714120749504310481e+000
  +9.17922466338504072780e+000
  +9.21925561975249152624e+000
  +9.25733418135829566609e+000
  +9.29355557064156911906e+000
  +9.32801036584083220760e+000
  +9.36078535180804749416e+000
  +9.39196120779409504564e+000
  +9.42161655107097217865e+000
  +9.44982554027284216147e+000
  +9.47665871715977203849e+000
  +9.50218318302038866818e+000
  +9.52646276647093692702e+000
  +9.54955818307049675298e+000
  +9.57152718715138028927e+000
  +9.59242471624445158795e+000
  +9.61230302846051110066e+000
  +9.63121183317130480361e+000
  +9.64919841531695965386e+000
  +9.66630775365062966387e+000
  +9.68258263321616396979e+000
  +9.69806375233994444329e+000
  +9.71278982440454363712e+000
  +9.72679767465862887832e+000
  +9.74012233230530100059e+000
  +9.75279711809901961317e+000
  +9.76485372767028003693e+000
  +9.77632252924709987951e+000
  +9.78723175455230887110e+000
  +9.79760891376986364776e+000
  +9.80747995689288565302e+000
  +9.81686956827822676530e+000
  +9.82580122837420510962e+000
  +9.83429727243782814128e+000
  +9.84237894638817856219e+000
  +9.85006645993573748399e+000
  +9.85737903712048790794e+000
  +9.86433496438514545446e+000
  +9.87095163630378102937e+000
  +9.87724559908015109500e+000
  +9.88323259192450720434e+000
  +9.88892758641239133510e+000
  +9.89434482392381120519e+000
  +9.89949794941450100794e+000
  +9.90439964787247362210e+000
  +9.90906228008619827108e+000
  +9.91349750582414834810e+000
  +9.91771641618312038702e+000
  +9.92172956132356631542e+000
  +9.92554697685220688186e+000
  +9.92917820891790903204e+000
  +9.93263233808359302657e+000
</dep>
<dep _net1.Vt time>
  +9.99999990000000315520e-008
  +4.87708356474782889212e-001
  +9.51640926397304687256e-001
  +1.39294821276954161604e+000
  +1.81273608117047135835e+000
  +2.21205393729384613977e+000
  +2.59188860717314062398e+000
  +2.95320481593774841755e+000
  +3.29689198337496458535e+000
  +3.62381679771751752384e+000
  +3.93480271826780025890e+000
  +4.23061527124521941090e+000
  +4.51200577775360933686e+000
  +4.77966691162927403980e+000
  +5.03427849344281330701e+000
  +5.27646727774729207283e+000
  +5.50684838902924234105e+000
  +5.72598893586010682100e+000
  +5.93444153280117259186e+000
  +6.13273123094225347529e+000
  +6.32134614229401048391e+000
  +6.50076190383003993389e+000
  +6.67142717762443915319e+000
  +6.83377183593265069561e+000
  +6.98819550807646816537e+000
  +7.13508760975767231116e+000
  +7.27481547166362130241e+000
  +7.40772850898390800012e+000
  +7.53416150351601388024e+000
  +7.65442568405171996915e+000
  +7.76882432508005660310e+000
  +7.87764350142030167490e+000
  +7.98115533541521848804e+000
  +8.07961867742297101813e+000
  +8.17327975311998855545e+000
  +8.26237277923353197195e+000
  +8.34712054924361623875e+000
  +8.42773499051905794488e+000
  +8.50441915498086231651e+000
  +8.57736180917641632959e+000
  +8.64674689520786898811e+000
  +8.71274792323030489172e+000
  +8.77552994094004468195e+000
  +8.83524994630671223206e+000
  +8.89205728017553020948e+000
  +8.94609399972151386748e+000
  +8.99749621281237033088e+000
  +9.04639045167756172816e+000
  +9.09290001466944453057e+000
  +9.13714120749504310481e+000
  +9.17922466338504072780e+000
  +9.21925561975249152624e+000
  +9.25733418135829566609e+000
  +9.29355557064156911906e+000
  +9.32801036584083220760e+000
  +9.36078535180804749416e+000
  +9.39196120779409504564e+000
  +9.42161655107097217865e+000
  +9.44982554027284216147e+000
  +9.47665871715977203849e+000
  +9.50218318302038866818e+000
  +9.52646276647093692702e+000
  +9.54955818307049675298e+000
  +9.57152718715138028927e+000
  +9.59242471624445158795e+000
  +9.61230302846051110066e+000
  +9.63121183317130480361e+000
  +9.64919841531695965386e+000
  +9.66630775365062966387e+000
  +9.68258263321616396979e+000
  +9.69806375233994444329e+000
  +9.71278982440454363712e+000
  +9.72679767465862887832e+000
  +9.74012233230530100059e+000
  +9.75279711809901961317e+000
  +9.76485372767028003693e+000
  +9.77632252924709987951e+000
  +9.78723175455230887110e+000
  +9.79760891376986364776e+000
  +9.80747995689288565302e+000
  +9.81686956827822676530e+000
  +9.82580122837420510962e+000
  +9.83429727243782814128e+000
  +9.84237894638817856219e+000
  +9.85006645993573748399e+000
  +9.85737903712048790794e+000
  +9.86433496438514545446e+000
  +9.87095163630378102937e+000
  +9.87724559908015109500e+000
  +9.88323259192450720434e+000
  +9.88892758641239133510e+000
  +9.89434482392381120519e+000
  +9.89949794941450100794e+000
  +9.90439964787247362210e+000
  +9.90906228008619827108e+000
  +9.91349750582414834810e+000
  +9.91771641618312038702e+000
  +9.92172956132356631542e+000
  +9.92554697685220688186e+000
  +9.92917820891790903204e+000
  +9.93263233808359302657e+000
</dep>
<dep _net0.Vt time>
  +1.00000000000000000000e+001
  +1.00000000000000000000e+001
  +1.00000000000000000000e+001
  +1.00000000000000000000e+001
  +1.00000000000000000000e+001
  +1.00000000000000000000e+001
  +1.00000000000000000000e+001
  +1.00000000000000000000e+001
  +1.00000000000000000000e+001
  +1.00000000000000000000e+001
  +1.00000000000000000000e+001
  +1.00000000000000000000e+001
  +1.00000000000000000000e+001
  +1.00000000000000000000e+001
  +1.00000000000000000000e+001
  +1.00000000000000000000e+001
  +1.00000000000000000000e+001
  +1.00000000000000000000e+001
  +1.00000000000000000000e+001
  +1.00000000000000000000e+001
  +1.00000000000000000000e+001
  +1.00000000000000000000e+001
  +1.00000000000000000000e+001
  +1.00000000000000000000e+001
  +1.00000000000000000000e+001
  +1.00000000000000000000e+001
  +1.00000000000000000000e+001
  +1.00000000000000000000e+001
  +1.00000000000000000000e+001
  +1.00000000000000000000e+001
  +1.00000000000000000000e+001
  +1.00000000000000000000e+001
